T2E88 11949:228.512   SEGGER J-Link V7.66e Log File
T2E88 11949:228.638   DLL Compiled: Jun 28 2022 15:23:53
T2E88 11949:228.645   Logging started @ 2024-08-17 19:54
T2E88 11949:228.650 - 137988.804ms
T2E88 11949:228.676 JLINK_SetWarnOutHandler(...)
T2E88 11949:228.682 - 0.008ms
T2E88 11949:228.689 JLINK_OpenEx(...)
T2E88 11949:230.113   Firmware: J-Link V10 compiled Nov  2 2021 12:14:50
T2E88 11949:230.655   Firmware: J-Link V10 compiled Nov  2 2021 12:14:50
T2E88 11949:230.826   Decompressing FW timestamp took 149 us
T2E88 11949:234.459   Hardware: V10.10
T2E88 11949:234.494   S/N: 50120412
T2E88 11949:234.518   OEM: SEGGER
T2E88 11949:234.526   Feature(s): GDB
T2E88 11949:238.084   TELNET listener socket opened on port 19021
T2E88 11949:243.383   WEBSRV WEBSRV_Init(): Starting webserver thread(s)
T2E88 11949:243.473   WEBSRV Webserver running on local port 19080
T2E88 11949:252.987 - 24.306ms returns "O.K."
T2E88 11949:253.460 JLINK_GetEmuCaps()
T2E88 11949:253.470 - 0.013ms returns 0xB9FF7BBF
T2E88 11949:253.479 JLINK_TIF_GetAvailable(...)
T2E88 11949:253.798 - 0.326ms
T2E88 11949:253.812 JLINK_SetErrorOutHandler(...)
T2E88 11949:253.818 - 0.008ms
T2E88 11949:253.828 JLINK_ExecCommand("ProjectFile = "C:\Data\The Anh\Ban huong\May-Ban-Huong\Code\Incense_machine\IDM\MDK-ARM\JLinkSettings.ini"", ...). 
T2E88 11949:254.445 - 0.622ms returns 0x00
T2E88 11949:260.554 JLINK_ExecCommand("Device = STM32F103VE", ...). 
T2E88 11949:266.188   Device "STM32F103VE" selected.
T2E88 11949:266.375 - 5.812ms returns 0x00
T2E88 11949:266.386 JLINK_ExecCommand("DisableConnectionTimeout", ...). 
T2E88 11949:266.394 - 0.003ms returns 0x01
T2E88 11949:266.402 JLINK_GetHardwareVersion()
T2E88 11949:266.407 - 0.007ms returns 101000
T2E88 11949:266.414 JLINK_GetDLLVersion()
T2E88 11949:266.419 - 0.007ms returns 76605
T2E88 11949:266.426 JLINK_GetOEMString(...)
T2E88 11949:266.432 JLINK_GetFirmwareString(...)
T2E88 11949:266.437 - 0.007ms
T2E88 11949:287.126 JLINK_GetDLLVersion()
T2E88 11949:287.138 - 0.014ms returns 76605
T2E88 11949:287.147 JLINK_GetCompileDateTime()
T2E88 11949:287.152 - 0.007ms
T2E88 11949:304.862 JLINK_GetFirmwareString(...)
T2E88 11949:304.872 - 0.013ms
T2E88 11949:322.020 JLINK_GetHardwareVersion()
T2E88 11949:322.031 - 0.014ms returns 101000
T2E88 11949:327.568 JLINK_GetSN()
T2E88 11949:327.579 - 0.013ms returns 50120412
T2E88 11949:331.296 JLINK_GetOEMString(...)
T2E88 11949:360.801 JLINK_TIF_Select(JLINKARM_TIF_SWD)
T2E88 11949:362.212 - 1.418ms returns 0x00
T2E88 11949:362.227 JLINK_HasError()
T2E88 11949:362.235 JLINK_SetSpeed(50000)
T2E88 11949:362.650 - 0.421ms
T2E88 11949:362.665 JLINK_GetId()
T2E88 11949:374.071   InitTarget() start
T2E88 11949:374.084    J-Link Script File: Executing InitTarget()
T2E88 11949:394.091   InitTarget() end
T2E88 11949:402.461   Found SW-DP with ID 0x1BA01477
T2E88 11949:408.623   DPIDR: 0x1BA01477
T2E88 11949:421.380   CoreSight SoC-400 or earlier
T2E88 11949:425.535   Scanning AP map to find all available APs
T2E88 11949:448.460   AP[1]: Stopped AP scan as end of AP map has been reached
T2E88 11949:472.906   AP[0]: AHB-AP (IDR: 0x14770011)
T2E88 11949:500.200   Iterating through AP map to find AHB-AP to use
T2E88 11949:517.736   AP[0]: Core found
T2E88 11949:523.031   AP[0]: AHB-AP ROM base: 0xE00FF000
T2E88 11949:531.739   CPUID register: 0x411FC231. Implementer code: 0x41 (ARM)
T2E88 11949:536.112   Found Cortex-M3 r1p1, Little endian.
T2E88 11949:637.450   -- Max. mem block: 0x00004378
T2E88 11949:638.075   CPU_ReadMem(4 bytes @ 0xE000EDF0)
T2E88 11949:638.506   CPU_ReadMem(4 bytes @ 0xE0002000)
T2E88 11949:654.150   FPUnit: 6 code (BP) slots and 2 literal slots
T2E88 11949:654.165   CPU_ReadMem(4 bytes @ 0xE000EDFC)
T2E88 11949:654.698   CPU_WriteMem(4 bytes @ 0xE000EDFC)
T2E88 11949:655.083   CPU_ReadMem(4 bytes @ 0xE0001000)
T2E88 11949:655.442   CPU_WriteMem(4 bytes @ 0xE0001000)
T2E88 11949:655.965   CPU_ReadMem(4 bytes @ 0xE000ED88)
T2E88 11949:656.307   CPU_WriteMem(4 bytes @ 0xE000ED88)
T2E88 11949:656.775   CPU_ReadMem(4 bytes @ 0xE000ED88)
T2E88 11949:657.294   CPU_WriteMem(4 bytes @ 0xE000ED88)
T2E88 11949:665.848   CoreSight components:
T2E88 11949:681.194   ROMTbl[0] @ E00FF000
T2E88 11949:681.210   CPU_ReadMem(64 bytes @ 0xE00FF000)
T2E88 11949:681.787   CPU_ReadMem(32 bytes @ 0xE000EFE0)
T2E88 11949:695.180   [0][0]: E000E000 CID B105E00D PID 001BB000 SCS
T2E88 11949:695.195   CPU_ReadMem(32 bytes @ 0xE0001FE0)
T2E88 11949:704.570   [0][1]: E0001000 CID B105E00D PID 001BB002 DWT
T2E88 11949:704.585   CPU_ReadMem(32 bytes @ 0xE0002FE0)
T2E88 11949:715.462   [0][2]: E0002000 CID B105E00D PID 000BB003 FPB
T2E88 11949:715.477   CPU_ReadMem(32 bytes @ 0xE0000FE0)
T2E88 11949:728.199   [0][3]: E0000000 CID B105E00D PID 001BB001 ITM
T2E88 11949:728.215   CPU_ReadMem(32 bytes @ 0xE0040FE0)
T2E88 11949:734.957   [0][4]: E0040000 CID B105900D PID 001BB923 TPIU-Lite
T2E88 11949:734.971   CPU_ReadMem(32 bytes @ 0xE0041FE0)
T2E88 11949:745.256   [0][5]: E0041000 CID B105900D PID 101BB924 ETM-M3
T2E88 11949:745.625 - 382.967ms returns 0x1BA01477
T2E88 11949:745.642 JLINK_GetDLLVersion()
T2E88 11949:745.647 - 0.007ms returns 76605
T2E88 11949:745.715 JLINK_CORE_GetFound()
T2E88 11949:745.725 - 0.012ms returns 0x30000FF
T2E88 11949:745.733 JLINK_GetDebugInfo(0x100 = JLINKARM_ROM_TABLE_ADDR_INDEX)
T2E88 11949:745.740   Value=0xE00FF000
T2E88 11949:745.747 - 0.015ms returns 0
T2E88 11949:756.534 JLINK_GetDebugInfo(0x100 = JLINKARM_ROM_TABLE_ADDR_INDEX)
T2E88 11949:756.545   Value=0xE00FF000
T2E88 11949:756.552 - 0.020ms returns 0
T2E88 11949:756.559 JLINK_GetDebugInfo(0x101 = JLINKARM_DEBUG_INFO_ETM_ADDR_INDEX)
T2E88 11949:756.564   Value=0xE0041000
T2E88 11949:756.571 - 0.014ms returns 0
T2E88 11949:756.579 JLINK_ReadMemEx(0xE0041FD0, 0x20 Bytes, Flags = 0x02000004)
T2E88 11949:756.590   CPU_ReadMem(32 bytes @ 0xE0041FD0)
T2E88 11949:757.061   Data:  04 00 00 00 00 00 00 00 00 00 00 00 00 00 00 00 ...
T2E88 11949:757.073 - 0.496ms returns 32 (0x20)
T2E88 11949:757.081 JLINK_GetDebugInfo(0x102 = JLINKARM_DEBUG_INFO_MTB_ADDR_INDEX)
T2E88 11949:757.087   Value=0x00000000
T2E88 11949:757.094 - 0.015ms returns 0
T2E88 11949:757.100 JLINK_GetDebugInfo(0x103 = JLINKARM_DEBUG_INFO_TPIU_ADDR_INDEX)
T2E88 11949:757.105   Value=0xE0040000
T2E88 11949:757.112 - 0.014ms returns 0
T2E88 11949:757.118 JLINK_GetDebugInfo(0x104 = JLINKARM_DEBUG_INFO_ITM_ADDR_INDEX)
T2E88 11949:757.123   Value=0xE0000000
T2E88 11949:757.130 - 0.014ms returns 0
T2E88 11949:757.136 JLINK_GetDebugInfo(0x105 = JLINKARM_DEBUG_INFO_DWT_ADDR_INDEX)
T2E88 11949:757.141   Value=0xE0001000
T2E88 11949:757.148 - 0.014ms returns 0
T2E88 11949:757.154 JLINK_GetDebugInfo(0x106 = JLINKARM_DEBUG_INFO_FPB_ADDR_INDEX)
T2E88 11949:757.159   Value=0xE0002000
T2E88 11949:757.166 - 0.014ms returns 0
T2E88 11949:757.172 JLINK_GetDebugInfo(0x107 = JLINKARM_DEBUG_INFO_NVIC_ADDR_INDEX)
T2E88 11949:757.177   Value=0xE000E000
T2E88 11949:757.184 - 0.014ms returns 0
T2E88 11949:757.190 JLINK_GetDebugInfo(0x10C = JLINKARM_DEBUG_INFO_DBG_ADDR_INDEX)
T2E88 11949:757.195   Value=0xE000EDF0
T2E88 11949:757.201 - 0.014ms returns 0
T2E88 11949:757.208 JLINK_GetDebugInfo(0x01 = Unknown)
T2E88 11949:757.213   Value=0x00000000
T2E88 11949:757.219 - 0.014ms returns 0
T2E88 11949:757.227 JLINK_ReadMemU32(0xE000ED00, 0x1 Items)
T2E88 11949:757.235   CPU_ReadMem(4 bytes @ 0xE000ED00)
T2E88 11949:757.593   Data:  31 C2 1F 41
T2E88 11949:757.605   Debug reg: CPUID
T2E88 11949:757.612 - 0.388ms returns 1 (0x1)
T2E88 11949:757.620 JLINK_GetDebugInfo(0x10F = JLINKARM_DEBUG_INFO_HAS_CORTEX_M_SECURITY_EXT_INDEX)
T2E88 11949:757.626   Value=0x00000000
T2E88 11949:757.633 - 0.015ms returns 0
T2E88 11949:757.639 JLINK_HasError()
T2E88 11949:757.647 JLINK_SetResetType(JLINKARM_CM3_RESET_TYPE_NORMAL)
T2E88 11949:757.653 - 0.007ms returns JLINKARM_CM3_RESET_TYPE_NORMAL
T2E88 11949:757.659 JLINK_Reset()
T2E88 11949:757.668   CPU is running
T2E88 11949:757.676   CPU_WriteMem(4 bytes @ 0xE000EDF0)
T2E88 11949:758.017   CPU is running
T2E88 11949:758.030   CPU_WriteMem(4 bytes @ 0xE000EDFC)
T2E88 11949:765.095   Reset: Halt core after reset via DEMCR.VC_CORERESET.
T2E88 11949:770.498   Reset: Reset device via AIRCR.SYSRESETREQ.
T2E88 11949:770.512   CPU is running
T2E88 11949:770.521   CPU_WriteMem(4 bytes @ 0xE000ED0C)
T2E88 11949:823.982   CPU_ReadMem(4 bytes @ 0xE000EDF0)
T2E88 11949:824.409   CPU_ReadMem(4 bytes @ 0xE000EDF0)
T2E88 11949:824.885   CPU is running
T2E88 11949:824.895   CPU_WriteMem(4 bytes @ 0xE000EDF0)
T2E88 11949:825.333   CPU is running
T2E88 11949:825.359   CPU_WriteMem(4 bytes @ 0xE000EDFC)
T2E88 11949:831.053   CPU_ReadMem(4 bytes @ 0xE000EDF0)
T2E88 11949:832.955   CPU_WriteMem(4 bytes @ 0xE0002000)
T2E88 11949:833.278   CPU_ReadMem(4 bytes @ 0xE000EDFC)
T2E88 11949:833.686   CPU_ReadMem(4 bytes @ 0xE0001000)
T2E88 11949:834.029 - 76.373ms
T2E88 11949:834.071 JLINK_Halt()
T2E88 11949:834.079 - 0.009ms returns 0x00
T2E88 11949:834.085 JLINK_ReadMemU32(0xE000EDF0, 0x1 Items)
T2E88 11949:834.094   CPU_ReadMem(4 bytes @ 0xE000EDF0)
T2E88 11949:834.543   Data:  03 00 03 00
T2E88 11949:834.552   Debug reg: DHCSR
T2E88 11949:834.559 - 0.491ms returns 1 (0x1)
T2E88 11949:834.583 JLINK_WriteU32_64(0xE000EDF0, 0xA05F0003)
T2E88 11949:834.610   Debug reg: DHCSR
T2E88 11949:834.979   CPU_WriteMem(4 bytes @ 0xE000EDF0)
T2E88 11949:835.265 - 0.686ms returns 0 (0x00000000)
T2E88 11949:835.275 JLINK_WriteU32_64(0xE000EDFC, 0x01000000)
T2E88 11949:835.280   Debug reg: DEMCR
T2E88 11949:835.290   CPU_WriteMem(4 bytes @ 0xE000EDFC)
T2E88 11949:835.700 - 0.429ms returns 0 (0x00000000)
T2E88 11949:859.561 JLINK_GetHWStatus(...)
T2E88 11949:860.002 - 0.448ms returns 0
T2E88 11949:893.481 JLINK_GetNumBPUnits(Type = 0xFFFFFF00)
T2E88 11949:893.495 - 0.016ms returns 0x06
T2E88 11949:893.501 JLINK_GetNumBPUnits(Type = 0xF0)
T2E88 11949:893.507 - 0.007ms returns 0x2000
T2E88 11949:893.513 JLINK_GetNumWPUnits()
T2E88 11949:893.518 - 0.007ms returns 4
T2E88 11949:955.294 JLINK_GetSpeed()
T2E88 11949:955.311 - 0.020ms returns 15000
T2E88 11949:990.598 JLINK_ReadMemU32(0xE000E004, 0x1 Items)
T2E88 11949:990.625   CPU_ReadMem(4 bytes @ 0xE000E004)
T2E88 11949:991.065   Data:  01 00 00 00
T2E88 11949:991.077 - 0.481ms returns 1 (0x1)
T2E88 11949:991.085 JLINK_ReadMemU32(0xE000E004, 0x1 Items)
T2E88 11949:991.094   CPU_ReadMem(4 bytes @ 0xE000E004)
T2E88 11949:991.468   Data:  01 00 00 00
T2E88 11949:991.479 - 0.397ms returns 1 (0x1)
T2E88 11949:991.495 JLINK_WriteMemEx(0xE0001000, 0x0000001C Bytes, Flags = 0x02000004)
T2E88 11949:991.501   Data:  01 00 00 00 00 00 00 00 00 00 00 00 00 00 00 00 ...
T2E88 11949:991.515   CPU_WriteMem(28 bytes @ 0xE0001000)
T2E88 11949:991.894 - 0.407ms returns 0x1C
T2E88 11949:991.912 JLINK_Halt()
T2E88 11949:991.933 - 0.023ms returns 0x00
T2E88 11949:991.941 JLINK_IsHalted()
T2E88 11949:991.947 - 0.008ms returns TRUE
T2E88 11949:994.933 JLINK_WriteMem(0x20000000, 0x164 Bytes, ...)
T2E88 11949:994.942   Data:  00 BE 0A E0 0D 78 2D 06 68 40 08 24 40 00 00 D3 ...
T2E88 11949:995.142   CPU_WriteMem(356 bytes @ 0x20000000)
T2E88 11949:996.067 - 1.141ms returns 0x164
T2E88 11949:996.096 JLINK_HasError()
T2E88 11949:996.106 JLINK_WriteReg(R0, 0x08000000)
T2E88 11949:996.113 - 0.009ms returns 0
T2E88 11949:996.119 JLINK_WriteReg(R1, 0x007A1200)
T2E88 11949:996.125 - 0.008ms returns 0
T2E88 11949:996.131 JLINK_WriteReg(R2, 0x00000001)
T2E88 11949:996.136 - 0.007ms returns 0
T2E88 11949:996.142 JLINK_WriteReg(R3, 0x00000000)
T2E88 11949:996.147 - 0.007ms returns 0
T2E88 11949:996.154 JLINK_WriteReg(R4, 0x00000000)
T2E88 11949:996.159 - 0.007ms returns 0
T2E88 11949:996.165 JLINK_WriteReg(R5, 0x00000000)
T2E88 11949:996.170 - 0.007ms returns 0
T2E88 11949:996.176 JLINK_WriteReg(R6, 0x00000000)
T2E88 11949:996.181 - 0.007ms returns 0
T2E88 11949:996.188 JLINK_WriteReg(R7, 0x00000000)
T2E88 11949:996.193 - 0.007ms returns 0
T2E88 11949:996.199 JLINK_WriteReg(R8, 0x00000000)
T2E88 11949:996.204 - 0.007ms returns 0
T2E88 11949:996.210 JLINK_WriteReg(R9, 0x20000160)
T2E88 11949:996.215 - 0.010ms returns 0
T2E88 11949:996.225 JLINK_WriteReg(R10, 0x00000000)
T2E88 11949:996.231 - 0.008ms returns 0
T2E88 11949:996.237 JLINK_WriteReg(R11, 0x00000000)
T2E88 11949:996.242 - 0.007ms returns 0
T2E88 11949:996.248 JLINK_WriteReg(R12, 0x00000000)
T2E88 11949:996.253 - 0.007ms returns 0
T2E88 11949:996.260 JLINK_WriteReg(R13 (SP), 0x20001000)
T2E88 11949:996.265 - 0.008ms returns 0
T2E88 11949:996.271 JLINK_WriteReg(R14, 0x20000001)
T2E88 11949:996.277 - 0.007ms returns 0
T2E88 11949:996.283 JLINK_WriteReg(R15 (PC), 0x20000038)
T2E88 11949:996.288 - 0.007ms returns 0
T2E88 11949:996.294 JLINK_WriteReg(XPSR, 0x01000000)
T2E88 11949:996.299 - 0.007ms returns 0
T2E88 11949:996.306 JLINK_WriteReg(MSP, 0x20001000)
T2E88 11949:996.311 - 0.007ms returns 0
T2E88 11949:996.317 JLINK_WriteReg(PSP, 0x20001000)
T2E88 11949:996.322 - 0.007ms returns 0
T2E88 11949:996.328 JLINK_WriteReg(CFBP, 0x00000000)
T2E88 11949:996.333 - 0.007ms returns 0
T2E88 11949:996.341 JLINK_SetBPEx(Addr = 0x20000000, Type = 0xFFFFFFF2)
T2E88 11949:996.349   CPU_ReadMem(2 bytes @ 0x20000000)
T2E88 11949:996.782 - 0.447ms returns 0x00000001
T2E88 11949:996.796 JLINK_Go()
T2E88 11949:996.804   CPU_WriteMem(2 bytes @ 0x20000000)
T2E88 11949:997.226   CPU_ReadMem(4 bytes @ 0xE0001000)
T2E88 11949:997.588   CPU_WriteMem(4 bytes @ 0xE0002008)
T2E88 11949:997.602   CPU_WriteMem(4 bytes @ 0xE000200C)
T2E88 11949:997.610   CPU_WriteMem(4 bytes @ 0xE0002010)
T2E88 11949:997.639   CPU_WriteMem(4 bytes @ 0xE0002014)
T2E88 11949:997.647   CPU_WriteMem(4 bytes @ 0xE0002018)
T2E88 11949:997.654   CPU_WriteMem(4 bytes @ 0xE000201C)
T2E88 11949:998.378   CPU_WriteMem(4 bytes @ 0xE0001004)
T2E88 11950:000.418 - 3.629ms
T2E88 11950:000.431 JLINK_IsHalted()
T2E88 11950:001.825   CPU_ReadMem(2 bytes @ 0x20000000)
T2E88 11950:002.346 - 1.921ms returns TRUE
T2E88 11950:002.360 JLINK_ReadReg(R15 (PC))
T2E88 11950:002.367 - 0.009ms returns 0x20000000
T2E88 11950:002.374 JLINK_ClrBPEx(BPHandle = 0x00000001)
T2E88 11950:002.380 - 0.008ms returns 0x00
T2E88 11950:002.386 JLINK_ReadReg(R0)
T2E88 11950:002.391 - 0.007ms returns 0x00000000
T2E88 11950:002.659 JLINK_HasError()
T2E88 11950:002.671 JLINK_WriteReg(R0, 0x08000000)
T2E88 11950:002.678 - 0.009ms returns 0
T2E88 11950:002.684 JLINK_WriteReg(R1, 0x007A1200)
T2E88 11950:002.689 - 0.007ms returns 0
T2E88 11950:002.696 JLINK_WriteReg(R2, 0x00000001)
T2E88 11950:002.701 - 0.007ms returns 0
T2E88 11950:002.707 JLINK_WriteReg(R3, 0x00000000)
T2E88 11950:002.712 - 0.007ms returns 0
T2E88 11950:002.718 JLINK_WriteReg(R4, 0x00000000)
T2E88 11950:002.723 - 0.007ms returns 0
T2E88 11950:002.729 JLINK_WriteReg(R5, 0x00000000)
T2E88 11950:002.734 - 0.007ms returns 0
T2E88 11950:002.740 JLINK_WriteReg(R6, 0x00000000)
T2E88 11950:002.745 - 0.007ms returns 0
T2E88 11950:002.751 JLINK_WriteReg(R7, 0x00000000)
T2E88 11950:002.757 - 0.007ms returns 0
T2E88 11950:002.763 JLINK_WriteReg(R8, 0x00000000)
T2E88 11950:002.768 - 0.007ms returns 0
T2E88 11950:002.774 JLINK_WriteReg(R9, 0x20000160)
T2E88 11950:002.779 - 0.007ms returns 0
T2E88 11950:002.785 JLINK_WriteReg(R10, 0x00000000)
T2E88 11950:002.790 - 0.007ms returns 0
T2E88 11950:002.796 JLINK_WriteReg(R11, 0x00000000)
T2E88 11950:002.801 - 0.007ms returns 0
T2E88 11950:002.807 JLINK_WriteReg(R12, 0x00000000)
T2E88 11950:002.812 - 0.007ms returns 0
T2E88 11950:002.818 JLINK_WriteReg(R13 (SP), 0x20001000)
T2E88 11950:002.824 - 0.008ms returns 0
T2E88 11950:002.830 JLINK_WriteReg(R14, 0x20000001)
T2E88 11950:002.835 - 0.007ms returns 0
T2E88 11950:002.841 JLINK_WriteReg(R15 (PC), 0x2000007C)
T2E88 11950:002.846 - 0.007ms returns 0
T2E88 11950:002.852 JLINK_WriteReg(XPSR, 0x01000000)
T2E88 11950:002.857 - 0.007ms returns 0
T2E88 11950:002.863 JLINK_WriteReg(MSP, 0x20001000)
T2E88 11950:002.868 - 0.007ms returns 0
T2E88 11950:002.875 JLINK_WriteReg(PSP, 0x20001000)
T2E88 11950:002.880 - 0.007ms returns 0
T2E88 11950:002.886 JLINK_WriteReg(CFBP, 0x00000000)
T2E88 11950:002.891 - 0.007ms returns 0
T2E88 11950:002.927 JLINK_SetBPEx(Addr = 0x20000000, Type = 0xFFFFFFF2)
T2E88 11950:002.935 - 0.011ms returns 0x00000002
T2E88 11950:002.942 JLINK_Go()
T2E88 11950:002.952   CPU_ReadMem(4 bytes @ 0xE0001000)
T2E88 11950:004.745 - 1.809ms
T2E88 11950:004.757 JLINK_IsHalted()
T2E88 11950:005.101 - 0.350ms returns FALSE
T2E88 11950:005.114 JLINK_HasError()
T2E88 11950:071.447 JLINK_IsHalted()
T2E88 11950:072.928   CPU_ReadMem(2 bytes @ 0x20000000)
T2E88 11950:073.269 - 1.828ms returns TRUE
T2E88 11950:073.282 JLINK_ReadReg(R15 (PC))
T2E88 11950:073.290 - 0.010ms returns 0x20000000
T2E88 11950:073.296 JLINK_ClrBPEx(BPHandle = 0x00000002)
T2E88 11950:073.302 - 0.008ms returns 0x00
T2E88 11950:073.309 JLINK_ReadReg(R0)
T2E88 11950:073.314 - 0.007ms returns 0x00000000
T2E88 11950:126.569 JLINK_HasError()
T2E88 11950:126.590 JLINK_WriteReg(R0, 0x00000001)
T2E88 11950:126.598 - 0.010ms returns 0
T2E88 11950:126.604 JLINK_WriteReg(R1, 0x007A1200)
T2E88 11950:126.610 - 0.007ms returns 0
T2E88 11950:126.616 JLINK_WriteReg(R2, 0x00000001)
T2E88 11950:126.621 - 0.007ms returns 0
T2E88 11950:126.627 JLINK_WriteReg(R3, 0x00000000)
T2E88 11950:126.632 - 0.007ms returns 0
T2E88 11950:126.638 JLINK_WriteReg(R4, 0x00000000)
T2E88 11950:126.643 - 0.007ms returns 0
T2E88 11950:126.649 JLINK_WriteReg(R5, 0x00000000)
T2E88 11950:126.655 - 0.007ms returns 0
T2E88 11950:126.661 JLINK_WriteReg(R6, 0x00000000)
T2E88 11950:126.666 - 0.007ms returns 0
T2E88 11950:126.672 JLINK_WriteReg(R7, 0x00000000)
T2E88 11950:126.677 - 0.007ms returns 0
T2E88 11950:126.683 JLINK_WriteReg(R8, 0x00000000)
T2E88 11950:126.688 - 0.007ms returns 0
T2E88 11950:126.694 JLINK_WriteReg(R9, 0x20000160)
T2E88 11950:126.700 - 0.007ms returns 0
T2E88 11950:126.706 JLINK_WriteReg(R10, 0x00000000)
T2E88 11950:126.711 - 0.007ms returns 0
T2E88 11950:126.717 JLINK_WriteReg(R11, 0x00000000)
T2E88 11950:126.722 - 0.007ms returns 0
T2E88 11950:126.728 JLINK_WriteReg(R12, 0x00000000)
T2E88 11950:126.733 - 0.007ms returns 0
T2E88 11950:126.740 JLINK_WriteReg(R13 (SP), 0x20001000)
T2E88 11950:126.746 - 0.008ms returns 0
T2E88 11950:126.752 JLINK_WriteReg(R14, 0x20000001)
T2E88 11950:126.757 - 0.007ms returns 0
T2E88 11950:126.763 JLINK_WriteReg(R15 (PC), 0x2000006A)
T2E88 11950:126.768 - 0.008ms returns 0
T2E88 11950:126.775 JLINK_WriteReg(XPSR, 0x01000000)
T2E88 11950:126.780 - 0.007ms returns 0
T2E88 11950:126.786 JLINK_WriteReg(MSP, 0x20001000)
T2E88 11950:126.794 - 0.010ms returns 0
T2E88 11950:126.801 JLINK_WriteReg(PSP, 0x20001000)
T2E88 11950:126.806 - 0.007ms returns 0
T2E88 11950:126.812 JLINK_WriteReg(CFBP, 0x00000000)
T2E88 11950:126.817 - 0.007ms returns 0
T2E88 11950:126.823 JLINK_SetBPEx(Addr = 0x20000000, Type = 0xFFFFFFF2)
T2E88 11950:126.830 - 0.009ms returns 0x00000003
T2E88 11950:126.836 JLINK_Go()
T2E88 11950:126.851   CPU_ReadMem(4 bytes @ 0xE0001000)
T2E88 11950:128.586 - 1.754ms
T2E88 11950:128.597 JLINK_IsHalted()
T2E88 11950:130.119   CPU_ReadMem(2 bytes @ 0x20000000)
T2E88 11950:130.488 - 1.895ms returns TRUE
T2E88 11950:130.497 JLINK_ReadReg(R15 (PC))
T2E88 11950:130.503 - 0.008ms returns 0x20000000
T2E88 11950:130.509 JLINK_ClrBPEx(BPHandle = 0x00000003)
T2E88 11950:130.515 - 0.007ms returns 0x00
T2E88 11950:130.521 JLINK_ReadReg(R0)
T2E88 11950:130.526 - 0.007ms returns 0x00000000
T2E88 11950:137.808 JLINK_WriteMem(0x20000000, 0x164 Bytes, ...)
T2E88 11950:137.818   Data:  00 BE 0A E0 0D 78 2D 06 68 40 08 24 40 00 00 D3 ...
T2E88 11950:137.832   CPU_WriteMem(356 bytes @ 0x20000000)
T2E88 11950:138.632 - 0.831ms returns 0x164
T2E88 11950:138.681 JLINK_HasError()
T2E88 11950:138.689 JLINK_WriteReg(R0, 0x08000000)
T2E88 11950:138.695 - 0.009ms returns 0
T2E88 11950:138.702 JLINK_WriteReg(R1, 0x007A1200)
T2E88 11950:138.707 - 0.007ms returns 0
T2E88 11950:138.713 JLINK_WriteReg(R2, 0x00000002)
T2E88 11950:138.718 - 0.007ms returns 0
T2E88 11950:138.725 JLINK_WriteReg(R3, 0x00000000)
T2E88 11950:138.730 - 0.007ms returns 0
T2E88 11950:138.736 JLINK_WriteReg(R4, 0x00000000)
T2E88 11950:138.745 - 0.014ms returns 0
T2E88 11950:138.756 JLINK_WriteReg(R5, 0x00000000)
T2E88 11950:138.762 - 0.007ms returns 0
T2E88 11950:138.768 JLINK_WriteReg(R6, 0x00000000)
T2E88 11950:138.773 - 0.007ms returns 0
T2E88 11950:138.779 JLINK_WriteReg(R7, 0x00000000)
T2E88 11950:138.784 - 0.007ms returns 0
T2E88 11950:138.790 JLINK_WriteReg(R8, 0x00000000)
T2E88 11950:138.795 - 0.007ms returns 0
T2E88 11950:138.801 JLINK_WriteReg(R9, 0x20000160)
T2E88 11950:138.807 - 0.007ms returns 0
T2E88 11950:138.813 JLINK_WriteReg(R10, 0x00000000)
T2E88 11950:138.818 - 0.007ms returns 0
T2E88 11950:138.824 JLINK_WriteReg(R11, 0x00000000)
T2E88 11950:138.829 - 0.008ms returns 0
T2E88 11950:138.836 JLINK_WriteReg(R12, 0x00000000)
T2E88 11950:138.841 - 0.007ms returns 0
T2E88 11950:138.847 JLINK_WriteReg(R13 (SP), 0x20001000)
T2E88 11950:138.853 - 0.008ms returns 0
T2E88 11950:138.859 JLINK_WriteReg(R14, 0x20000001)
T2E88 11950:138.864 - 0.007ms returns 0
T2E88 11950:138.870 JLINK_WriteReg(R15 (PC), 0x20000038)
T2E88 11950:138.875 - 0.007ms returns 0
T2E88 11950:138.881 JLINK_WriteReg(XPSR, 0x01000000)
T2E88 11950:138.887 - 0.007ms returns 0
T2E88 11950:138.893 JLINK_WriteReg(MSP, 0x20001000)
T2E88 11950:138.898 - 0.007ms returns 0
T2E88 11950:138.904 JLINK_WriteReg(PSP, 0x20001000)
T2E88 11950:138.909 - 0.007ms returns 0
T2E88 11950:138.915 JLINK_WriteReg(CFBP, 0x00000000)
T2E88 11950:138.920 - 0.007ms returns 0
T2E88 11950:138.927 JLINK_SetBPEx(Addr = 0x20000000, Type = 0xFFFFFFF2)
T2E88 11950:138.935   CPU_ReadMem(2 bytes @ 0x20000000)
T2E88 11950:139.496 - 0.574ms returns 0x00000004
T2E88 11950:139.507 JLINK_Go()
T2E88 11950:139.531   CPU_WriteMem(2 bytes @ 0x20000000)
T2E88 11950:139.920   CPU_ReadMem(4 bytes @ 0xE0001000)
T2E88 11950:141.651 - 2.149ms
T2E88 11950:141.661 JLINK_IsHalted()
T2E88 11950:143.232   CPU_ReadMem(2 bytes @ 0x20000000)
T2E88 11950:143.588 - 1.931ms returns TRUE
T2E88 11950:143.597 JLINK_ReadReg(R15 (PC))
T2E88 11950:143.603 - 0.008ms returns 0x20000000
T2E88 11950:143.610 JLINK_ClrBPEx(BPHandle = 0x00000004)
T2E88 11950:143.615 - 0.008ms returns 0x00
T2E88 11950:143.621 JLINK_ReadReg(R0)
T2E88 11950:143.626 - 0.007ms returns 0x00000000
T2E88 11950:143.837 JLINK_WriteMem(0x20000164, 0x29C Bytes, ...)
T2E88 11950:143.846   Data:  D8 12 00 20 1D 02 00 08 F7 46 00 08 11 40 00 08 ...
T2E88 11950:143.859   CPU_WriteMem(668 bytes @ 0x20000164)
T2E88 11950:145.010 - 1.177ms returns 0x29C
T2E88 11950:145.020 JLINK_WriteMem(0x20000400, 0x164 Bytes, ...)
T2E88 11950:145.026   Data:  E6 18 C0 1A A8 61 28 6A 18 44 28 62 28 46 AF F3 ...
T2E88 11950:145.035   CPU_WriteMem(356 bytes @ 0x20000400)
T2E88 11950:145.755 - 0.739ms returns 0x164
T2E88 11950:145.766 JLINK_HasError()
T2E88 11950:145.774 JLINK_WriteReg(R0, 0x08000000)
T2E88 11950:145.780 - 0.008ms returns 0
T2E88 11950:145.787 JLINK_WriteReg(R1, 0x00000400)
T2E88 11950:145.792 - 0.007ms returns 0
T2E88 11950:145.799 JLINK_WriteReg(R2, 0x20000164)
T2E88 11950:145.804 - 0.007ms returns 0
T2E88 11950:145.812 JLINK_WriteReg(R3, 0x00000000)
T2E88 11950:145.817 - 0.007ms returns 0
T2E88 11950:145.824 JLINK_WriteReg(R4, 0x00000000)
T2E88 11950:145.829 - 0.007ms returns 0
T2E88 11950:145.836 JLINK_WriteReg(R5, 0x00000000)
T2E88 11950:145.841 - 0.007ms returns 0
T2E88 11950:145.848 JLINK_WriteReg(R6, 0x00000000)
T2E88 11950:145.853 - 0.007ms returns 0
T2E88 11950:145.861 JLINK_WriteReg(R7, 0x00000000)
T2E88 11950:145.866 - 0.007ms returns 0
T2E88 11950:145.873 JLINK_WriteReg(R8, 0x00000000)
T2E88 11950:145.878 - 0.007ms returns 0
T2E88 11950:145.885 JLINK_WriteReg(R9, 0x20000160)
T2E88 11950:145.890 - 0.007ms returns 0
T2E88 11950:145.897 JLINK_WriteReg(R10, 0x00000000)
T2E88 11950:145.902 - 0.007ms returns 0
T2E88 11950:145.909 JLINK_WriteReg(R11, 0x00000000)
T2E88 11950:145.915 - 0.007ms returns 0
T2E88 11950:145.922 JLINK_WriteReg(R12, 0x00000000)
T2E88 11950:145.927 - 0.007ms returns 0
T2E88 11950:145.934 JLINK_WriteReg(R13 (SP), 0x20001000)
T2E88 11950:145.940 - 0.008ms returns 0
T2E88 11950:145.947 JLINK_WriteReg(R14, 0x20000001)
T2E88 11950:145.956 - 0.011ms returns 0
T2E88 11950:145.963 JLINK_WriteReg(R15 (PC), 0x200000F4)
T2E88 11950:145.968 - 0.007ms returns 0
T2E88 11950:145.975 JLINK_WriteReg(XPSR, 0x01000000)
T2E88 11950:145.981 - 0.007ms returns 0
T2E88 11950:145.988 JLINK_WriteReg(MSP, 0x20001000)
T2E88 11950:145.993 - 0.007ms returns 0
T2E88 11950:146.000 JLINK_WriteReg(PSP, 0x20001000)
T2E88 11950:146.005 - 0.007ms returns 0
T2E88 11950:146.012 JLINK_WriteReg(CFBP, 0x00000000)
T2E88 11950:146.017 - 0.007ms returns 0
T2E88 11950:146.025 JLINK_SetBPEx(Addr = 0x20000000, Type = 0xFFFFFFF2)
T2E88 11950:146.030 - 0.008ms returns 0x00000005
T2E88 11950:146.038 JLINK_Go()
T2E88 11950:146.047   CPU_ReadMem(4 bytes @ 0xE0001000)
T2E88 11950:147.923 - 1.889ms
T2E88 11950:147.934 JLINK_IsHalted()
T2E88 11950:148.297 - 0.367ms returns FALSE
T2E88 11950:148.307 JLINK_HasError()
T2E88 11950:154.190 JLINK_IsHalted()
T2E88 11950:154.633 - 0.466ms returns FALSE
T2E88 11950:154.663 JLINK_HasError()
T2E88 11950:156.201 JLINK_IsHalted()
T2E88 11950:156.483 - 0.286ms returns FALSE
T2E88 11950:156.492 JLINK_HasError()
T2E88 11950:158.178 JLINK_IsHalted()
T2E88 11950:158.598 - 0.427ms returns FALSE
T2E88 11950:158.612 JLINK_HasError()
T2E88 11950:160.205 JLINK_IsHalted()
T2E88 11950:160.662 - 0.463ms returns FALSE
T2E88 11950:160.675 JLINK_HasError()
T2E88 11950:162.200 JLINK_IsHalted()
T2E88 11950:162.540 - 0.346ms returns FALSE
T2E88 11950:162.552 JLINK_HasError()
T2E88 11950:166.206 JLINK_IsHalted()
T2E88 11950:166.735 - 0.535ms returns FALSE
T2E88 11950:166.748 JLINK_HasError()
T2E88 11950:333.761 JLINK_IsHalted()
T2E88 11950:335.279   CPU_ReadMem(2 bytes @ 0x20000000)
T2E88 11950:335.821 - 2.066ms returns TRUE
T2E88 11950:335.834 JLINK_ReadReg(R15 (PC))
T2E88 11950:335.841 - 0.010ms returns 0x20000000
T2E88 11950:335.848 JLINK_ClrBPEx(BPHandle = 0x00000005)
T2E88 11950:335.853 - 0.008ms returns 0x00
T2E88 11950:335.860 JLINK_ReadReg(R0)
T2E88 11950:335.865 - 0.007ms returns 0x00000000
T2E88 11950:336.732 JLINK_WriteMem(0x20000164, 0x29C Bytes, ...)
T2E88 11950:336.759   Data:  01 2F 0A D0 2E 2E 08 D1 20 46 E1 68 88 47 7F 1C ...
T2E88 11950:336.773   CPU_WriteMem(668 bytes @ 0x20000164)
T2E88 11950:337.905 - 1.179ms returns 0x29C
T2E88 11950:337.933 JLINK_WriteMem(0x20000400, 0x164 Bytes, ...)
T2E88 11950:337.939   Data:  02 21 CD E9 00 16 A0 F1 46 01 8B 29 3C D2 DD E9 ...
T2E88 11950:337.949   CPU_WriteMem(356 bytes @ 0x20000400)
T2E88 11950:338.673 - 0.744ms returns 0x164
T2E88 11950:338.683 JLINK_HasError()
T2E88 11950:338.692 JLINK_WriteReg(R0, 0x08000400)
T2E88 11950:338.698 - 0.009ms returns 0
T2E88 11950:338.704 JLINK_WriteReg(R1, 0x00000400)
T2E88 11950:338.710 - 0.007ms returns 0
T2E88 11950:338.716 JLINK_WriteReg(R2, 0x20000164)
T2E88 11950:338.721 - 0.007ms returns 0
T2E88 11950:338.727 JLINK_WriteReg(R3, 0x00000000)
T2E88 11950:338.733 - 0.007ms returns 0
T2E88 11950:338.739 JLINK_WriteReg(R4, 0x00000000)
T2E88 11950:338.744 - 0.007ms returns 0
T2E88 11950:338.750 JLINK_WriteReg(R5, 0x00000000)
T2E88 11950:338.755 - 0.007ms returns 0
T2E88 11950:338.761 JLINK_WriteReg(R6, 0x00000000)
T2E88 11950:338.766 - 0.007ms returns 0
T2E88 11950:338.773 JLINK_WriteReg(R7, 0x00000000)
T2E88 11950:338.778 - 0.007ms returns 0
T2E88 11950:338.784 JLINK_WriteReg(R8, 0x00000000)
T2E88 11950:338.789 - 0.007ms returns 0
T2E88 11950:338.795 JLINK_WriteReg(R9, 0x20000160)
T2E88 11950:338.800 - 0.007ms returns 0
T2E88 11950:338.807 JLINK_WriteReg(R10, 0x00000000)
T2E88 11950:338.812 - 0.007ms returns 0
T2E88 11950:338.818 JLINK_WriteReg(R11, 0x00000000)
T2E88 11950:338.823 - 0.007ms returns 0
T2E88 11950:338.829 JLINK_WriteReg(R12, 0x00000000)
T2E88 11950:338.834 - 0.007ms returns 0
T2E88 11950:338.840 JLINK_WriteReg(R13 (SP), 0x20001000)
T2E88 11950:338.846 - 0.008ms returns 0
T2E88 11950:338.852 JLINK_WriteReg(R14, 0x20000001)
T2E88 11950:338.857 - 0.007ms returns 0
T2E88 11950:338.863 JLINK_WriteReg(R15 (PC), 0x200000F4)
T2E88 11950:338.868 - 0.010ms returns 0
T2E88 11950:338.880 JLINK_WriteReg(XPSR, 0x01000000)
T2E88 11950:338.885 - 0.008ms returns 0
T2E88 11950:338.891 JLINK_WriteReg(MSP, 0x20001000)
T2E88 11950:338.897 - 0.007ms returns 0
T2E88 11950:338.903 JLINK_WriteReg(PSP, 0x20001000)
T2E88 11950:338.908 - 0.007ms returns 0
T2E88 11950:338.914 JLINK_WriteReg(CFBP, 0x00000000)
T2E88 11950:338.919 - 0.007ms returns 0
T2E88 11950:338.925 JLINK_SetBPEx(Addr = 0x20000000, Type = 0xFFFFFFF2)
T2E88 11950:338.934 - 0.011ms returns 0x00000006
T2E88 11950:338.941 JLINK_Go()
T2E88 11950:338.952   CPU_ReadMem(4 bytes @ 0xE0001000)
T2E88 11950:340.802 - 1.865ms
T2E88 11950:340.811 JLINK_IsHalted()
T2E88 11950:341.187 - 0.379ms returns FALSE
T2E88 11950:341.196 JLINK_HasError()
T2E88 11950:346.704 JLINK_IsHalted()
T2E88 11950:347.177 - 0.479ms returns FALSE
T2E88 11950:347.189 JLINK_HasError()
T2E88 11950:348.699 JLINK_IsHalted()
T2E88 11950:349.058 - 0.365ms returns FALSE
T2E88 11950:349.071 JLINK_HasError()
T2E88 11950:350.697 JLINK_IsHalted()
T2E88 11950:351.127 - 0.437ms returns FALSE
T2E88 11950:351.140 JLINK_HasError()
T2E88 11950:352.688 JLINK_IsHalted()
T2E88 11950:353.004 - 0.323ms returns FALSE
T2E88 11950:353.017 JLINK_HasError()
T2E88 11950:354.683 JLINK_IsHalted()
T2E88 11950:355.129 - 0.452ms returns FALSE
T2E88 11950:355.141 JLINK_HasError()
T2E88 11950:356.678 JLINK_IsHalted()
T2E88 11950:357.046 - 0.374ms returns FALSE
T2E88 11950:357.058 JLINK_HasError()
T2E88 11950:358.671 JLINK_IsHalted()
T2E88 11950:359.085 - 0.421ms returns FALSE
T2E88 11950:359.098 JLINK_HasError()
T2E88 11950:360.748 JLINK_IsHalted()
T2E88 11950:361.179 - 0.437ms returns FALSE
T2E88 11950:361.191 JLINK_HasError()
T2E88 11950:362.662 JLINK_IsHalted()
T2E88 11950:363.060 - 0.404ms returns FALSE
T2E88 11950:363.072 JLINK_HasError()
T2E88 11950:364.657 JLINK_IsHalted()
T2E88 11950:365.132 - 0.482ms returns FALSE
T2E88 11950:365.145 JLINK_HasError()
T2E88 11950:366.658 JLINK_IsHalted()
T2E88 11950:367.028 - 0.376ms returns FALSE
T2E88 11950:367.040 JLINK_HasError()
T2E88 11950:368.649 JLINK_IsHalted()
T2E88 11950:369.088 - 0.445ms returns FALSE
T2E88 11950:369.101 JLINK_HasError()
T2E88 11950:370.640 JLINK_IsHalted()
T2E88 11950:370.962 - 0.328ms returns FALSE
T2E88 11950:370.975 JLINK_HasError()
T2E88 11950:372.640 JLINK_IsHalted()
T2E88 11950:374.098   CPU_ReadMem(2 bytes @ 0x20000000)
T2E88 11950:374.437 - 1.803ms returns TRUE
T2E88 11950:374.450 JLINK_ReadReg(R15 (PC))
T2E88 11950:374.457 - 0.009ms returns 0x20000000
T2E88 11950:374.464 JLINK_ClrBPEx(BPHandle = 0x00000006)
T2E88 11950:374.469 - 0.008ms returns 0x00
T2E88 11950:374.476 JLINK_ReadReg(R0)
T2E88 11950:374.481 - 0.007ms returns 0x00000000
T2E88 11950:375.242 JLINK_WriteMem(0x20000164, 0x29C Bytes, ...)
T2E88 11950:375.252   Data:  90 47 20 6A 40 1C 20 62 28 1E A5 F1 01 05 F3 DC ...
T2E88 11950:375.265   CPU_WriteMem(668 bytes @ 0x20000164)
T2E88 11950:376.402 - 1.167ms returns 0x29C
T2E88 11950:376.414 JLINK_WriteMem(0x20000400, 0x164 Bytes, ...)
T2E88 11950:376.420   Data:  03 F0 4E FB 00 06 FB D4 10 BD 10 B5 BF 20 03 F0 ...
T2E88 11950:376.431   CPU_WriteMem(356 bytes @ 0x20000400)
T2E88 11950:377.392 - 0.984ms returns 0x164
T2E88 11950:377.405 JLINK_HasError()
T2E88 11950:377.412 JLINK_WriteReg(R0, 0x08000800)
T2E88 11950:377.419 - 0.009ms returns 0
T2E88 11950:377.425 JLINK_WriteReg(R1, 0x00000400)
T2E88 11950:377.431 - 0.007ms returns 0
T2E88 11950:377.437 JLINK_WriteReg(R2, 0x20000164)
T2E88 11950:377.442 - 0.007ms returns 0
T2E88 11950:377.448 JLINK_WriteReg(R3, 0x00000000)
T2E88 11950:377.454 - 0.007ms returns 0
T2E88 11950:377.460 JLINK_WriteReg(R4, 0x00000000)
T2E88 11950:377.465 - 0.007ms returns 0
T2E88 11950:377.471 JLINK_WriteReg(R5, 0x00000000)
T2E88 11950:377.476 - 0.007ms returns 0
T2E88 11950:377.482 JLINK_WriteReg(R6, 0x00000000)
T2E88 11950:377.488 - 0.007ms returns 0
T2E88 11950:377.494 JLINK_WriteReg(R7, 0x00000000)
T2E88 11950:377.499 - 0.007ms returns 0
T2E88 11950:377.505 JLINK_WriteReg(R8, 0x00000000)
T2E88 11950:377.567 - 0.068ms returns 0
T2E88 11950:377.578 JLINK_WriteReg(R9, 0x20000160)
T2E88 11950:377.583 - 0.009ms returns 0
T2E88 11950:377.591 JLINK_WriteReg(R10, 0x00000000)
T2E88 11950:377.597 - 0.008ms returns 0
T2E88 11950:377.604 JLINK_WriteReg(R11, 0x00000000)
T2E88 11950:377.609 - 0.024ms returns 0
T2E88 11950:377.632 JLINK_WriteReg(R12, 0x00000000)
T2E88 11950:377.637 - 0.007ms returns 0
T2E88 11950:377.643 JLINK_WriteReg(R13 (SP), 0x20001000)
T2E88 11950:377.649 - 0.008ms returns 0
T2E88 11950:377.655 JLINK_WriteReg(R14, 0x20000001)
T2E88 11950:377.660 - 0.007ms returns 0
T2E88 11950:377.666 JLINK_WriteReg(R15 (PC), 0x200000F4)
T2E88 11950:377.672 - 0.007ms returns 0
T2E88 11950:377.678 JLINK_WriteReg(XPSR, 0x01000000)
T2E88 11950:377.683 - 0.007ms returns 0
T2E88 11950:377.689 JLINK_WriteReg(MSP, 0x20001000)
T2E88 11950:377.694 - 0.007ms returns 0
T2E88 11950:377.701 JLINK_WriteReg(PSP, 0x20001000)
T2E88 11950:377.706 - 0.007ms returns 0
T2E88 11950:377.712 JLINK_WriteReg(CFBP, 0x00000000)
T2E88 11950:377.719 - 0.009ms returns 0
T2E88 11950:377.725 JLINK_SetBPEx(Addr = 0x20000000, Type = 0xFFFFFFF2)
T2E88 11950:377.731 - 0.008ms returns 0x00000007
T2E88 11950:377.737 JLINK_Go()
T2E88 11950:377.751   CPU_ReadMem(4 bytes @ 0xE0001000)
T2E88 11950:379.506 - 1.776ms
T2E88 11950:379.519 JLINK_IsHalted()
T2E88 11950:379.848 - 0.332ms returns FALSE
T2E88 11950:379.857 JLINK_HasError()
T2E88 11950:381.580 JLINK_IsHalted()
T2E88 11950:381.910 - 0.333ms returns FALSE
T2E88 11950:381.920 JLINK_HasError()
T2E88 11950:383.576 JLINK_IsHalted()
T2E88 11950:384.004 - 0.431ms returns FALSE
T2E88 11950:384.012 JLINK_HasError()
T2E88 11950:385.569 JLINK_IsHalted()
T2E88 11950:385.889 - 0.323ms returns FALSE
T2E88 11950:385.898 JLINK_HasError()
T2E88 11950:387.564 JLINK_IsHalted()
T2E88 11950:387.965 - 0.405ms returns FALSE
T2E88 11950:387.973 JLINK_HasError()
T2E88 11950:389.560 JLINK_IsHalted()
T2E88 11950:389.858 - 0.301ms returns FALSE
T2E88 11950:389.866 JLINK_HasError()
T2E88 11950:391.553 JLINK_IsHalted()
T2E88 11950:391.900 - 0.350ms returns FALSE
T2E88 11950:391.908 JLINK_HasError()
T2E88 11950:393.569 JLINK_IsHalted()
T2E88 11950:394.048 - 0.486ms returns FALSE
T2E88 11950:394.061 JLINK_HasError()
T2E88 11950:395.543 JLINK_IsHalted()
T2E88 11950:396.047 - 0.524ms returns FALSE
T2E88 11950:396.073 JLINK_HasError()
T2E88 11950:397.560 JLINK_IsHalted()
T2E88 11950:397.994 - 0.438ms returns FALSE
T2E88 11950:398.018 JLINK_HasError()
T2E88 11950:399.532 JLINK_IsHalted()
T2E88 11950:399.905 - 0.376ms returns FALSE
T2E88 11950:399.913 JLINK_HasError()
T2E88 11950:401.529 JLINK_IsHalted()
T2E88 11950:401.983 - 0.458ms returns FALSE
T2E88 11950:401.992 JLINK_HasError()
T2E88 11950:403.521 JLINK_IsHalted()
T2E88 11950:403.858 - 0.340ms returns FALSE
T2E88 11950:403.867 JLINK_HasError()
T2E88 11950:405.518 JLINK_IsHalted()
T2E88 11950:405.969 - 0.455ms returns FALSE
T2E88 11950:405.978 JLINK_HasError()
T2E88 11950:407.511 JLINK_IsHalted()
T2E88 11950:407.837 - 0.330ms returns FALSE
T2E88 11950:407.848 JLINK_HasError()
T2E88 11950:409.506 JLINK_IsHalted()
T2E88 11950:409.943 - 0.441ms returns FALSE
T2E88 11950:409.951 JLINK_HasError()
T2E88 11950:411.501 JLINK_IsHalted()
T2E88 11950:412.878   CPU_ReadMem(2 bytes @ 0x20000000)
T2E88 11950:413.247 - 1.750ms returns TRUE
T2E88 11950:413.257 JLINK_ReadReg(R15 (PC))
T2E88 11950:413.280 - 0.025ms returns 0x20000000
T2E88 11950:413.286 JLINK_ClrBPEx(BPHandle = 0x00000007)
T2E88 11950:413.292 - 0.007ms returns 0x00
T2E88 11950:413.298 JLINK_ReadReg(R0)
T2E88 11950:413.303 - 0.007ms returns 0x00000000
T2E88 11950:414.548 JLINK_WriteMem(0x20000164, 0x29C Bytes, ...)
T2E88 11950:414.558   Data:  70 40 03 F0 67 BA 70 47 10 B5 01 20 03 F0 20 FA ...
T2E88 11950:414.570   CPU_WriteMem(668 bytes @ 0x20000164)
T2E88 11950:415.760 - 1.230ms returns 0x29C
T2E88 11950:415.785 JLINK_WriteMem(0x20000400, 0x164 Bytes, ...)
T2E88 11950:415.790   Data:  03 F0 D8 F8 00 20 03 F0 17 F9 1F 20 03 F0 D2 F8 ...
T2E88 11950:415.842   CPU_WriteMem(356 bytes @ 0x20000400)
T2E88 11950:416.678 - 0.897ms returns 0x164
T2E88 11950:416.687 JLINK_HasError()
T2E88 11950:416.693 JLINK_WriteReg(R0, 0x08000C00)
T2E88 11950:416.700 - 0.008ms returns 0
T2E88 11950:416.706 JLINK_WriteReg(R1, 0x00000400)
T2E88 11950:416.711 - 0.007ms returns 0
T2E88 11950:416.717 JLINK_WriteReg(R2, 0x20000164)
T2E88 11950:416.722 - 0.007ms returns 0
T2E88 11950:416.728 JLINK_WriteReg(R3, 0x00000000)
T2E88 11950:416.734 - 0.007ms returns 0
T2E88 11950:416.740 JLINK_WriteReg(R4, 0x00000000)
T2E88 11950:416.745 - 0.007ms returns 0
T2E88 11950:416.751 JLINK_WriteReg(R5, 0x00000000)
T2E88 11950:416.756 - 0.007ms returns 0
T2E88 11950:416.762 JLINK_WriteReg(R6, 0x00000000)
T2E88 11950:416.767 - 0.007ms returns 0
T2E88 11950:416.773 JLINK_WriteReg(R7, 0x00000000)
T2E88 11950:416.778 - 0.007ms returns 0
T2E88 11950:416.784 JLINK_WriteReg(R8, 0x00000000)
T2E88 11950:416.789 - 0.007ms returns 0
T2E88 11950:416.795 JLINK_WriteReg(R9, 0x20000160)
T2E88 11950:416.800 - 0.007ms returns 0
T2E88 11950:416.806 JLINK_WriteReg(R10, 0x00000000)
T2E88 11950:416.811 - 0.007ms returns 0
T2E88 11950:416.818 JLINK_WriteReg(R11, 0x00000000)
T2E88 11950:416.823 - 0.007ms returns 0
T2E88 11950:416.829 JLINK_WriteReg(R12, 0x00000000)
T2E88 11950:416.834 - 0.007ms returns 0
T2E88 11950:416.840 JLINK_WriteReg(R13 (SP), 0x20001000)
T2E88 11950:416.846 - 0.008ms returns 0
T2E88 11950:416.852 JLINK_WriteReg(R14, 0x20000001)
T2E88 11950:416.857 - 0.007ms returns 0
T2E88 11950:416.863 JLINK_WriteReg(R15 (PC), 0x200000F4)
T2E88 11950:416.868 - 0.007ms returns 0
T2E88 11950:416.874 JLINK_WriteReg(XPSR, 0x01000000)
T2E88 11950:416.879 - 0.007ms returns 0
T2E88 11950:416.885 JLINK_WriteReg(MSP, 0x20001000)
T2E88 11950:416.890 - 0.007ms returns 0
T2E88 11950:416.896 JLINK_WriteReg(PSP, 0x20001000)
T2E88 11950:416.901 - 0.007ms returns 0
T2E88 11950:416.908 JLINK_WriteReg(CFBP, 0x00000000)
T2E88 11950:416.913 - 0.007ms returns 0
T2E88 11950:416.919 JLINK_SetBPEx(Addr = 0x20000000, Type = 0xFFFFFFF2)
T2E88 11950:416.925 - 0.008ms returns 0x00000008
T2E88 11950:416.931 JLINK_Go()
T2E88 11950:416.941   CPU_ReadMem(4 bytes @ 0xE0001000)
T2E88 11950:418.776 - 1.849ms
T2E88 11950:418.786 JLINK_IsHalted()
T2E88 11950:419.358 - 0.575ms returns FALSE
T2E88 11950:419.366 JLINK_HasError()
T2E88 11950:420.476 JLINK_IsHalted()
T2E88 11950:420.888 - 0.415ms returns FALSE
T2E88 11950:420.897 JLINK_HasError()
T2E88 11950:422.472 JLINK_IsHalted()
T2E88 11950:422.757 - 0.288ms returns FALSE
T2E88 11950:422.766 JLINK_HasError()
T2E88 11950:424.466 JLINK_IsHalted()
T2E88 11950:424.923 - 0.476ms returns FALSE
T2E88 11950:424.947 JLINK_HasError()
T2E88 11950:432.445 JLINK_IsHalted()
T2E88 11950:432.884 - 0.444ms returns FALSE
T2E88 11950:432.895 JLINK_HasError()
T2E88 11950:434.440 JLINK_IsHalted()
T2E88 11950:434.766 - 0.330ms returns FALSE
T2E88 11950:434.775 JLINK_HasError()
T2E88 11950:436.433 JLINK_IsHalted()
T2E88 11950:436.857 - 0.428ms returns FALSE
T2E88 11950:436.866 JLINK_HasError()
T2E88 11950:438.429 JLINK_IsHalted()
T2E88 11950:438.917 - 0.492ms returns FALSE
T2E88 11950:438.927 JLINK_HasError()
T2E88 11950:440.422 JLINK_IsHalted()
T2E88 11950:440.837 - 0.423ms returns FALSE
T2E88 11950:440.853 JLINK_HasError()
T2E88 11950:442.420 JLINK_IsHalted()
T2E88 11950:442.854 - 0.438ms returns FALSE
T2E88 11950:442.865 JLINK_HasError()
T2E88 11950:444.415 JLINK_IsHalted()
T2E88 11950:444.759 - 0.348ms returns FALSE
T2E88 11950:444.769 JLINK_HasError()
T2E88 11950:446.406 JLINK_IsHalted()
T2E88 11950:446.804 - 0.402ms returns FALSE
T2E88 11950:446.813 JLINK_HasError()
T2E88 11950:448.401 JLINK_IsHalted()
T2E88 11950:448.733 - 0.336ms returns FALSE
T2E88 11950:448.742 JLINK_HasError()
T2E88 11950:450.395 JLINK_IsHalted()
T2E88 11950:451.829   CPU_ReadMem(2 bytes @ 0x20000000)
T2E88 11950:452.210 - 1.819ms returns TRUE
T2E88 11950:452.219 JLINK_ReadReg(R15 (PC))
T2E88 11950:452.226 - 0.009ms returns 0x20000000
T2E88 11950:452.232 JLINK_ClrBPEx(BPHandle = 0x00000008)
T2E88 11950:452.242 - 0.012ms returns 0x00
T2E88 11950:452.249 JLINK_ReadReg(R0)
T2E88 11950:452.254 - 0.007ms returns 0x00000000
T2E88 11950:452.683 JLINK_WriteMem(0x20000164, 0x29C Bytes, ...)
T2E88 11950:452.693   Data:  20 D1 12 4B 02 68 9A 42 17 D1 93 68 1B 02 19 D4 ...
T2E88 11950:452.705   CPU_WriteMem(668 bytes @ 0x20000164)
T2E88 11950:453.946 - 1.267ms returns 0x29C
T2E88 11950:453.956 JLINK_WriteMem(0x20000400, 0x164 Bytes, ...)
T2E88 11950:453.961   Data:  08 48 00 F0 9B FA 00 22 11 46 12 20 00 F0 00 FC ...
T2E88 11950:453.970   CPU_WriteMem(356 bytes @ 0x20000400)
T2E88 11950:454.711 - 0.760ms returns 0x164
T2E88 11950:454.721 JLINK_HasError()
T2E88 11950:454.728 JLINK_WriteReg(R0, 0x08001000)
T2E88 11950:454.734 - 0.008ms returns 0
T2E88 11950:454.740 JLINK_WriteReg(R1, 0x00000400)
T2E88 11950:454.745 - 0.007ms returns 0
T2E88 11950:454.751 JLINK_WriteReg(R2, 0x20000164)
T2E88 11950:454.756 - 0.007ms returns 0
T2E88 11950:454.762 JLINK_WriteReg(R3, 0x00000000)
T2E88 11950:454.767 - 0.007ms returns 0
T2E88 11950:454.773 JLINK_WriteReg(R4, 0x00000000)
T2E88 11950:454.778 - 0.007ms returns 0
T2E88 11950:454.785 JLINK_WriteReg(R5, 0x00000000)
T2E88 11950:454.790 - 0.007ms returns 0
T2E88 11950:454.796 JLINK_WriteReg(R6, 0x00000000)
T2E88 11950:454.801 - 0.007ms returns 0
T2E88 11950:454.807 JLINK_WriteReg(R7, 0x00000000)
T2E88 11950:454.812 - 0.007ms returns 0
T2E88 11950:454.818 JLINK_WriteReg(R8, 0x00000000)
T2E88 11950:454.823 - 0.007ms returns 0
T2E88 11950:454.829 JLINK_WriteReg(R9, 0x20000160)
T2E88 11950:454.834 - 0.007ms returns 0
T2E88 11950:454.840 JLINK_WriteReg(R10, 0x00000000)
T2E88 11950:454.846 - 0.007ms returns 0
T2E88 11950:454.852 JLINK_WriteReg(R11, 0x00000000)
T2E88 11950:454.857 - 0.007ms returns 0
T2E88 11950:454.863 JLINK_WriteReg(R12, 0x00000000)
T2E88 11950:454.868 - 0.007ms returns 0
T2E88 11950:454.874 JLINK_WriteReg(R13 (SP), 0x20001000)
T2E88 11950:454.880 - 0.008ms returns 0
T2E88 11950:454.886 JLINK_WriteReg(R14, 0x20000001)
T2E88 11950:454.891 - 0.007ms returns 0
T2E88 11950:454.897 JLINK_WriteReg(R15 (PC), 0x200000F4)
T2E88 11950:454.902 - 0.007ms returns 0
T2E88 11950:454.908 JLINK_WriteReg(XPSR, 0x01000000)
T2E88 11950:454.914 - 0.007ms returns 0
T2E88 11950:454.920 JLINK_WriteReg(MSP, 0x20001000)
T2E88 11950:454.925 - 0.007ms returns 0
T2E88 11950:454.931 JLINK_WriteReg(PSP, 0x20001000)
T2E88 11950:454.936 - 0.007ms returns 0
T2E88 11950:454.942 JLINK_WriteReg(CFBP, 0x00000000)
T2E88 11950:454.947 - 0.007ms returns 0
T2E88 11950:454.953 JLINK_SetBPEx(Addr = 0x20000000, Type = 0xFFFFFFF2)
T2E88 11950:454.959 - 0.008ms returns 0x00000009
T2E88 11950:454.965 JLINK_Go()
T2E88 11950:454.978   CPU_ReadMem(4 bytes @ 0xE0001000)
T2E88 11950:456.892 - 1.934ms
T2E88 11950:456.905 JLINK_IsHalted()
T2E88 11950:457.222 - 0.321ms returns FALSE
T2E88 11950:457.232 JLINK_HasError()
T2E88 11950:458.375 JLINK_IsHalted()
T2E88 11950:458.724 - 0.353ms returns FALSE
T2E88 11950:458.734 JLINK_HasError()
T2E88 11950:460.370 JLINK_IsHalted()
T2E88 11950:460.839 - 0.473ms returns FALSE
T2E88 11950:460.848 JLINK_HasError()
T2E88 11950:462.364 JLINK_IsHalted()
T2E88 11950:462.711 - 0.355ms returns FALSE
T2E88 11950:462.724 JLINK_HasError()
T2E88 11950:464.359 JLINK_IsHalted()
T2E88 11950:464.810 - 0.454ms returns FALSE
T2E88 11950:464.818 JLINK_HasError()
T2E88 11950:466.355 JLINK_IsHalted()
T2E88 11950:466.684 - 0.332ms returns FALSE
T2E88 11950:466.693 JLINK_HasError()
T2E88 11950:468.348 JLINK_IsHalted()
T2E88 11950:468.807 - 0.462ms returns FALSE
T2E88 11950:468.816 JLINK_HasError()
T2E88 11950:470.343 JLINK_IsHalted()
T2E88 11950:470.686 - 0.347ms returns FALSE
T2E88 11950:470.695 JLINK_HasError()
T2E88 11950:472.336 JLINK_IsHalted()
T2E88 11950:472.815 - 0.483ms returns FALSE
T2E88 11950:472.825 JLINK_HasError()
T2E88 11950:474.333 JLINK_IsHalted()
T2E88 11950:474.701 - 0.371ms returns FALSE
T2E88 11950:474.710 JLINK_HasError()
T2E88 11950:476.332 JLINK_IsHalted()
T2E88 11950:476.776 - 0.449ms returns FALSE
T2E88 11950:476.787 JLINK_HasError()
T2E88 11950:480.318 JLINK_IsHalted()
T2E88 11950:480.674 - 0.361ms returns FALSE
T2E88 11950:480.684 JLINK_HasError()
T2E88 11950:482.317 JLINK_IsHalted()
T2E88 11950:482.758 - 0.444ms returns FALSE
T2E88 11950:482.767 JLINK_HasError()
T2E88 11950:486.334 JLINK_IsHalted()
T2E88 11950:486.656 - 0.328ms returns FALSE
T2E88 11950:486.667 JLINK_HasError()
T2E88 11950:489.294 JLINK_IsHalted()
T2E88 11950:490.706   CPU_ReadMem(2 bytes @ 0x20000000)
T2E88 11950:491.006 - 1.716ms returns TRUE
T2E88 11950:491.015 JLINK_ReadReg(R15 (PC))
T2E88 11950:491.022 - 0.008ms returns 0x20000000
T2E88 11950:491.028 JLINK_ClrBPEx(BPHandle = 0x00000009)
T2E88 11950:491.034 - 0.008ms returns 0x00
T2E88 11950:491.040 JLINK_ReadReg(R0)
T2E88 11950:491.045 - 0.007ms returns 0x00000000
T2E88 11950:491.452 JLINK_WriteMem(0x20000164, 0x29C Bytes, ...)
T2E88 11950:491.462   Data:  0D 4E 28 36 B1 42 06 D0 0B 4A 3C 32 91 42 01 D1 ...
T2E88 11950:491.475   CPU_WriteMem(668 bytes @ 0x20000164)
T2E88 11950:492.636 - 1.189ms returns 0x29C
T2E88 11950:492.646 JLINK_WriteMem(0x20000400, 0x164 Bytes, ...)
T2E88 11950:492.652   Data:  01 64 17 49 0A E0 01 20 30 BD 13 4B 5B 42 13 44 ...
T2E88 11950:492.662   CPU_WriteMem(356 bytes @ 0x20000400)
T2E88 11950:493.419 - 0.777ms returns 0x164
T2E88 11950:493.429 JLINK_HasError()
T2E88 11950:493.436 JLINK_WriteReg(R0, 0x08001400)
T2E88 11950:493.442 - 0.008ms returns 0
T2E88 11950:493.448 JLINK_WriteReg(R1, 0x00000400)
T2E88 11950:493.453 - 0.007ms returns 0
T2E88 11950:493.459 JLINK_WriteReg(R2, 0x20000164)
T2E88 11950:493.465 - 0.007ms returns 0
T2E88 11950:493.471 JLINK_WriteReg(R3, 0x00000000)
T2E88 11950:493.476 - 0.007ms returns 0
T2E88 11950:493.482 JLINK_WriteReg(R4, 0x00000000)
T2E88 11950:493.487 - 0.007ms returns 0
T2E88 11950:493.493 JLINK_WriteReg(R5, 0x00000000)
T2E88 11950:493.498 - 0.007ms returns 0
T2E88 11950:493.504 JLINK_WriteReg(R6, 0x00000000)
T2E88 11950:493.509 - 0.007ms returns 0
T2E88 11950:493.515 JLINK_WriteReg(R7, 0x00000000)
T2E88 11950:493.520 - 0.007ms returns 0
T2E88 11950:493.526 JLINK_WriteReg(R8, 0x00000000)
T2E88 11950:493.532 - 0.007ms returns 0
T2E88 11950:493.538 JLINK_WriteReg(R9, 0x20000160)
T2E88 11950:493.543 - 0.007ms returns 0
T2E88 11950:493.549 JLINK_WriteReg(R10, 0x00000000)
T2E88 11950:493.554 - 0.007ms returns 0
T2E88 11950:493.563 JLINK_WriteReg(R11, 0x00000000)
T2E88 11950:493.569 - 0.008ms returns 0
T2E88 11950:493.575 JLINK_WriteReg(R12, 0x00000000)
T2E88 11950:493.580 - 0.007ms returns 0
T2E88 11950:493.586 JLINK_WriteReg(R13 (SP), 0x20001000)
T2E88 11950:493.592 - 0.008ms returns 0
T2E88 11950:493.598 JLINK_WriteReg(R14, 0x20000001)
T2E88 11950:493.603 - 0.007ms returns 0
T2E88 11950:493.609 JLINK_WriteReg(R15 (PC), 0x200000F4)
T2E88 11950:493.614 - 0.007ms returns 0
T2E88 11950:493.621 JLINK_WriteReg(XPSR, 0x01000000)
T2E88 11950:493.626 - 0.008ms returns 0
T2E88 11950:493.632 JLINK_WriteReg(MSP, 0x20001000)
T2E88 11950:493.638 - 0.007ms returns 0
T2E88 11950:493.644 JLINK_WriteReg(PSP, 0x20001000)
T2E88 11950:493.649 - 0.007ms returns 0
T2E88 11950:493.655 JLINK_WriteReg(CFBP, 0x00000000)
T2E88 11950:493.660 - 0.007ms returns 0
T2E88 11950:493.666 JLINK_SetBPEx(Addr = 0x20000000, Type = 0xFFFFFFF2)
T2E88 11950:493.672 - 0.008ms returns 0x0000000A
T2E88 11950:493.679 JLINK_Go()
T2E88 11950:493.689   CPU_ReadMem(4 bytes @ 0xE0001000)
T2E88 11950:495.530 - 1.856ms
T2E88 11950:495.540 JLINK_IsHalted()
T2E88 11950:496.057 - 0.521ms returns FALSE
T2E88 11950:496.066 JLINK_HasError()
T2E88 11950:497.271 JLINK_IsHalted()
T2E88 11950:497.587 - 0.320ms returns FALSE
T2E88 11950:497.595 JLINK_HasError()
T2E88 11950:499.267 JLINK_IsHalted()
T2E88 11950:499.747 - 0.484ms returns FALSE
T2E88 11950:499.756 JLINK_HasError()
T2E88 11950:503.287 JLINK_IsHalted()
T2E88 11950:503.637 - 0.356ms returns FALSE
T2E88 11950:503.650 JLINK_HasError()
T2E88 11950:505.281 JLINK_IsHalted()
T2E88 11950:505.783 - 0.508ms returns FALSE
T2E88 11950:505.798 JLINK_HasError()
T2E88 11950:507.278 JLINK_IsHalted()
T2E88 11950:507.656 - 0.385ms returns FALSE
T2E88 11950:507.669 JLINK_HasError()
T2E88 11950:509.272 JLINK_IsHalted()
T2E88 11950:509.730 - 0.464ms returns FALSE
T2E88 11950:509.743 JLINK_HasError()
T2E88 11950:511.338 JLINK_IsHalted()
T2E88 11950:511.802 - 0.470ms returns FALSE
T2E88 11950:511.815 JLINK_HasError()
T2E88 11950:513.278 JLINK_IsHalted()
T2E88 11950:513.679 - 0.408ms returns FALSE
T2E88 11950:513.692 JLINK_HasError()
T2E88 11950:515.224 JLINK_IsHalted()
T2E88 11950:515.711 - 0.491ms returns FALSE
T2E88 11950:515.721 JLINK_HasError()
T2E88 11950:517.217 JLINK_IsHalted()
T2E88 11950:517.608 - 0.394ms returns FALSE
T2E88 11950:517.617 JLINK_HasError()
T2E88 11950:519.212 JLINK_IsHalted()
T2E88 11950:519.484 - 0.276ms returns FALSE
T2E88 11950:519.493 JLINK_HasError()
T2E88 11950:521.210 JLINK_IsHalted()
T2E88 11950:521.589 - 0.382ms returns FALSE
T2E88 11950:521.599 JLINK_HasError()
T2E88 11950:523.202 JLINK_IsHalted()
T2E88 11950:523.642 - 0.444ms returns FALSE
T2E88 11950:523.651 JLINK_HasError()
T2E88 11950:525.198 JLINK_IsHalted()
T2E88 11950:525.542 - 0.348ms returns FALSE
T2E88 11950:525.551 JLINK_HasError()
T2E88 11950:527.191 JLINK_IsHalted()
T2E88 11950:528.683   CPU_ReadMem(2 bytes @ 0x20000000)
T2E88 11950:528.984 - 1.797ms returns TRUE
T2E88 11950:528.993 JLINK_ReadReg(R15 (PC))
T2E88 11950:529.000 - 0.008ms returns 0x20000000
T2E88 11950:529.006 JLINK_ClrBPEx(BPHandle = 0x0000000A)
T2E88 11950:529.011 - 0.007ms returns 0x00
T2E88 11950:529.018 JLINK_ReadReg(R0)
T2E88 11950:529.023 - 0.007ms returns 0x00000000
T2E88 11950:529.400 JLINK_WriteMem(0x20000164, 0x29C Bytes, ...)
T2E88 11950:529.410   Data:  DF F8 A8 C1 4E 68 A6 EB 0C 08 66 45 2B D0 0D DC ...
T2E88 11950:529.422   CPU_WriteMem(668 bytes @ 0x20000164)
